# 기본동작 No. 04 - 구동 방향 설정 (CW, CCW)

## 시험 항목

구동 방향 설정 (CW, CCW)

## 시험 목표

- Running Direction [0xD102]를 CW(0x0001)로 설정 후 구동 시 팬이 시계 방향으로 회전함을 확인한다.
- Running Direction [0xD102]를 CCW(0x0000)로 설정 후 구동 시 팬이 반시계 방향으로 회전함을 확인한다.

## 시험 기준

### 사전 조건

- RS485 인터페이스를 통해 드라이브와 호스트 PC 연결 완료
- 모터 및 팬 정상 장착 상태
- Slave ID: 0x01 기준

### 시험 절차

1. RS485 인터페이스를 통해 드라이브와 호스트 PC를 연결한다.
2. 통신 툴을 실행하고 드라이브와 정상 통신되는지 확인한다.
3. 운전 모드를 Open-loop control mode로 변경한다.

**Operating Mode 쓰기 — FC(06) Write Single Register**
- 레지스터: Operating Mode [0xD106]
- 값: 0x0002 (Open-loop control)

| 바이트 | 0 | 1 | 2 | 3 | 4 | 5 | 6 | 7 |
|--------|------|------|------|------|------|------|------|------|
| 내용 | 0x01 | 0x06 | 0xD1 | 0x06 | 0x00 | 0x02 | 0xD1 | 0x36 |

→ `01 06 D1 06 00 02 D1 36`

---

### CW 방향 시험

4. 운전 방향을 CW로 설정한다. (0xD102 = 0x0001)

**Running Direction 쓰기 (CW = 0x0001)**

| 바이트 | 0 | 1 | 2 | 3 | 4 | 5 | 6 | 7 |
|--------|------|------|------|------|------|------|------|------|
| 내용 | 0x01 | 0x06 | 0xD1 | 0x02 | 0x00 | 0x01 | 0xD0 | 0xF6 |

→ `01 06 D1 02 00 01 D0 F6`

5. Set Point를 6554 (10% 토크)로 설정하여 구동한다.

**Set Point 쓰기 (6554 = 0x199A)**

| 바이트 | 0 | 1 | 2 | 3 | 4 | 5 | 6 | 7 |
|--------|------|------|------|------|------|------|------|------|
| 내용 | 0x01 | 0x06 | 0xD0 | 0x01 | 0x19 | 0x9A | 0x6B | 0x31 |

→ `01 06 D0 01 19 9A 6B 31`

6. 팬을 정면으로 바라보았을 때 팬의 구동방향이 CW임을 확인한다.
7. Set Point를 0으로 설정하여 정지시킨다.

**Set Point 쓰기 (정지 = 0x0000)**

| 바이트 | 0 | 1 | 2 | 3 | 4 | 5 | 6 | 7 |
|--------|------|------|------|------|------|------|------|------|
| 내용 | 0x01 | 0x06 | 0xD0 | 0x01 | 0x00 | 0x00 | 0xE0 | 0xCA |

→ `01 06 D0 01 00 00 E0 CA`

---

### CCW 방향 시험

8. 운전 방향을 CCW로 설정한다. (0xD102 = 0x0000)

**Running Direction 쓰기 (CCW = 0x0000)**

| 바이트 | 0 | 1 | 2 | 3 | 4 | 5 | 6 | 7 |
|--------|------|------|------|------|------|------|------|------|
| 내용 | 0x01 | 0x06 | 0xD1 | 0x02 | 0x00 | 0x00 | 0x11 | 0x36 |

→ `01 06 D1 02 00 00 11 36`

9. Set Point를 6554로 설정하여 구동한다.
10. 팬을 정면으로 바라보았을 때 팬의 구동방향이 CCW임을 확인한다.
11. Set Point를 0으로 설정하여 정지시킨다.

### 판정 기준

| 케이스 | 판정 조건 |
|--------|----------|
| CW | [0xD102] = 0x0001 설정 후 구동 지령 시 시계 방향 회전 확인 |
| CCW | [0xD102] = 0x0000 설정 후 구동 지령 시 반시계 방향 회전 확인 |

**합격 조건**: CW / CCW 양방향 모두 설정에 따라 정상 구동

## 시험 결과

| 시험 일자 | 시험자 | 케이스 | 판정 | 비고 |
|----------|--------|--------|------|------|
|          |        | CW | □ 합격 / □ 불합격 | |
|          |        | CCW | □ 합격 / □ 불합격 | |
|          |        | **종합** | □ 합격 / □ 불합격 | |


시험 항목 : [RS485 Modbus 기반 구동 방향(CW/CCW) 제어 무결성 및 고속 회전 중 동적 역전(On-the-fly Reversal) 안전성 통합 검증] 시험 목적 : Modbus FC 0x06 명령으로 Running Direction [0xD102] 파라미터가 정상 적용되어 정지 상태에서 CW/CCW 구동이 정확히 수행되는지 확인한다. 또한, 비정상 방향 코드 입력에 대한 예외 처리와 고속 구동 중 방향 변경 명령 하달 시 펌웨어가 관성에 의한 하드웨어 데미지(과전압/과전류)를 방어하고 부드럽게 감속 및 역회전(Zero-crossing)을 수행하는지 종합적으로 검증한다.

시험 방법 : <Phase 1. 초기 상태 연결 및 정방향(CW)/역방향(CCW) 기본 제어 확인 (Base Setup & Static Test)>

RS485 인터페이스를 통해 드라이브(Node ID: 0x01)와 PC를 연결하고, Operating Mode [0xD106]를 Open-loop control(0x0002)로 설정한다. (01 06 D1 06 00 02 D1 36)
정지(Stop) 상태에서 Running Direction [0xD102]에 CW(0x0001)를 Write (FC: 0x06) 한다. (01 06 D1 02 00 01 D0 F6)
Set Point [0xD001]에 10% 토크(0x199A)를 인가하여 모터가 시계 방향(CW)으로 부드럽게 기동하는지 물리적으로 확인 후 정지(0x0000)시킨다.
다시 정지 상태에서 Running Direction [0xD102]에 CCW(0x0000)를 Write (01 06 D1 02 00 00 11 36) 하고, 동일하게 10% 구동을 통해 반시계 방향 회전을 확인 후 정지시킨다.

<Phase 2. 지원 범위를 벗어난 비정상 방향 설정 예외 검증 (Negative Test)>
모터가 정지된 상태에서, CW(1)나 CCW(0)가 아닌 정의되지 않은 쓰레기 값(예: 0x0002, 0xFFFF 등)을 Running Direction [0xD102] 레지스터에 강제 Write (FC: 0x06) 시도한다.
예외 송신(TX) 프레임: 01 06 D1 02 FF FF [맞는 CRC Hi/Lo]
통신 버퍼를 감시하며 펌웨어가 이 값을 메모리에 덮어쓰지 않고 거부하는지 확인한다.

<Phase 3. 고관성(High Inertia) 고속 구동 중 동적 방향 역전 스트레스 검증 (On-the-fly Reversal Test)>
다시 방향을 CW(0x0001)로 설정하고, Set Point [0xD001]를 드라이브 최대 속도의 80% 수준(예: 0xCCCC)으로 강력하게 인가하여 EC FAN을 고속 회전시킨다.
[극한 스트레스 주입] 블레이드가 고속으로 회전하며 엄청난 관성을 유지하고 있는 도중, 정지(Stop) 명령을 내리지 않고 기습적으로 Running Direction [0xD102] 레지스터에 역방향인 CCW(0x0000) 변경 명령을 강제 전송한다.
드라이브가 즉각적인 인버터 스위칭 역전(Shoot-through)을 방지하고, 0 RPM까지 자체적으로 안전하게 감속(Deceleration)한 뒤, 이어서 CCW 방향으로 재가속(Acceleration)하는 전체 시퀀스를 오실로스코프(전류/전압 파형)와 육안으로 모니터링한다.

<Phase 4. 에러 발생 및 자가 복구 검증 (Error Recovery Test)>
만약 Phase 3의 동적 역전 과정에서 급격한 회생 제동(Regeneration)으로 인해 모터의 역기전력(Back-EMF)이 상승하여 하드웨어 OVP(과전압) 또는 OCP(과전류) 알람이 발생하며 모터가 Trip(뻗음) 되는지 관찰한다.
알람이 발생했다면, 펌웨어가 통신 먹통(Deadlock)에 빠지지 않고 상태 레지스터에 해당 Fault Code를 명확히 리포트하는지 확인한다.
알람 리셋 [0x800E] 명령을 통해 에러를 클리어한 뒤, 파라미터가 꼬이지 않고 즉시 정상적인 제어(CW/CCW 구동) 상태로 자가 복구되는지 확인한다.

판정기준 : Phase [blocked]

정지 상태에서 CW(1), CCW(0) Write 시 정상적으로 Echo가 응답되어야 하며, 입력된 방향 설정에 맞춰 정확하게 모터가 물리적 회전을 수행해야 한다.
[Phase 2 판정 - 예외 처리]

0x0002 또는 0xFFFF 등 허용되지 않은 방향 값 Write 시도 시, 드라이브는 즉시 파라미터 갱신을 거부하고 Modbus Exception Code 0x03 (Illegal Data Value) 프레임(예: 01 86 03 02 61)을 반환하여 파라미터 오염을 철저히 방어해야 합격이다.
[Phase 3 판정 - 동적 역전 안전성 (Safety & Algorithm 핵심)]

고속 구동 중 방향 변경 명령 수신 시 펌웨어의 동작은 설계 스펙에 따라 다음 둘 중 하나를 반드시 만족해야 합격 처리한다.
Type A (명령 거부형): 구동 중 방향 변경을 허용하지 않는 스펙일 경우, 즉시 Exception Code 0x03 또는 0x04를 응답하고 현재의 CW 고속 회전을 안정적으로 유지해야 한다.
Type B (자동 처리형): 변경을 허용하는 스펙일 경우, 역방향 인버터 신호를 즉각 때리지 않고 내부적으로 **감속 곡선을 따라 0 RPM까지 완전히 정지한 후, 다시 CCW 방향으로 가속 곡선을 타며 부드럽게 반전(Zero-crossing)**해야 한다.
하드웨어 보호 로직 부재로 인해 인버터 소자가 파손되거나 드라이브가 전원 리셋(Watchdog) 되어버리면 즉시 **불합격(Fail)**이다.
[Phase 4 판정 - 에러 복구]

역기전력으로 인한 알람 트립 시에도 통신 루프는 100% 정상 구동되어야 한다.
알람 리셋 후 드라이브 전원 재투입(Reset) 없이 즉각 정상적인 방향 제어 대기(Ready) 상태로 복구되어야 한다.