# 구동동작 No. 06 - 구동 모드 설정 (Operation mode)

## 시험 항목

Operating Mode 파라미터 설정에 따라 Open-loop(토크 제어) 및 Closed-loop Velocity(속도 제어) 모드가 정상 동작하는지 확인하는 시험이다.

## 시험 목표

Operating Mode [0xD106]을 Open-loop(0x0002) 및 Closed-loop Velocity(0x0000)로 각각 설정하여, 각 모드에서 Set Point에 따른 토크/속도 제어가 정상 동작하는지 확인한다.

## 시험 기준

### 사전 조건

- RS485 인터페이스를 통해 드라이브와 호스트 PC 연결 완료
- Set Value Source [0xD101]이 RS485(0x0001)로 설정되어 있어야 함
- Slave ID: 0x01 기준

### 시험 절차

---

### Open-loop (토크 제어) 모드 시험

1. RS485 인터페이스를 통해 드라이브와 호스트 PC를 연결한다.
2. 통신 툴을 실행하고 드라이브와 정상 통신되는지 확인한다.
3. Operating Mode를 Open-loop(0x0002)로 설정한다.

**Operating Mode 쓰기 (Open-loop = 0x0002) — FC(06)**

| 바이트 | 0 | 1 | 2 | 3 | 4 | 5 | 6 | 7 |
|--------|------|------|------|------|------|------|------|------|
| 내용 | 0x01 | 0x06 | 0xD1 | 0x06 | 0x00 | 0x02 | 0xD1 | 0x36 |

→ `01 06 D1 06 00 02 D1 36`

4. Set Point [0xD001]에 10% 토크 명령을 입력한다. (6554 = 0x199A)

**Set Point 쓰기 (10% 토크 = 6554 = 0x199A)**
- Open-loop 변환 공식: raw = pct / 100 × 65535

| 바이트 | 0 | 1 | 2 | 3 | 4 | 5 | 6 | 7 |
|--------|------|------|------|------|------|------|------|------|
| 내용 | 0x01 | 0x06 | 0xD0 | 0x01 | 0x19 | 0x9A | 0x6B | 0x31 |

→ `01 06 D0 01 19 9A 6B 31`

5. Command Torque [0xD050] 파라미터를 읽어 10%로 출력되는지 확인한다.

**Command Torque 읽기 — FC(04)**

| 바이트 | 0 | 1 | 2 | 3 | 4 | 5 | 6 | 7 |
|--------|------|------|------|------|------|------|------|------|
| 내용 | 0x01 | 0x04 | 0xD0 | 0x50 | 0x00 | 0x01 | 0x09 | 0x1B |

→ `01 04 D0 50 00 01 09 1B`

---

### Closed-loop Velocity (속도 제어) 모드 시험

6. Operating Mode를 Closed-loop Velocity(0x0000)로 설정한다.

**Operating Mode 쓰기 (Closed-loop Velocity = 0x0000) — FC(06)**

| 바이트 | 0 | 1 | 2 | 3 | 4 | 5 | 6 | 7 |
|--------|------|------|------|------|------|------|------|------|
| 내용 | 0x01 | 0x06 | 0xD1 | 0x06 | 0x00 | 0x00 | 0x50 | 0xF7 |

→ `01 06 D1 06 00 00 50 F7`

7. Set Point [0xD001]에 100rpm 속도 명령을 입력한다. (3200 = 0x0C80)

**Set Point 쓰기 (100rpm = 3200 = 0x0C80)**
- Closed-loop 변환 공식: raw = rpm / maxSpeed × 64000 (maxSpeed = 1600RPM 기준)

| 바이트 | 0 | 1 | 2 | 3 | 4 | 5 | 6 | 7 |
|--------|------|------|------|------|------|------|------|------|
| 내용 | 0x01 | 0x06 | 0xD0 | 0x01 | 0x0C | 0x80 | 0xE4 | 0x6A |

→ `01 06 D0 01 0C 80 E4 6A`

8. Command Velocity [0xD051] 파라미터를 읽어 100rpm으로 설정되었는지 확인한다.
9. Actual Speed [0xD02D]를 읽어 실제 속도가 100rpm에 추종하는지 확인한다.

### 판정 기준

- Operating Mode = 0x0002 (Open-loop): Command Torque [0xD050] = 10 (10%) 출력 확인
- Operating Mode = 0x0000 (Closed-loop Velocity): Actual Speed [0xD02D]가 100rpm에 추종 확인

## 시험 결과

| 시험 일자 | 시험자 | 판정 | 비고 |
|----------|--------|------|------|
|          |        | 합격 / 불합격 |      |
