# 기본동작 No. 04 - 구동 방향 설정 (CW, CCW)

## 시험 항목

Running Direction [0xD102] 파라미터 설정에 따라 모터가 CW 및 CCW 방향으로 정상 구동되는지 확인하는 시험이다.

## 시험 목표

Operating Mode를 Open-loop control(0x0002)으로 설정한 후, Running Direction [0xD102]를 CW(0x0001) 및 CCW(0x0000)로 각각 설정하여 모터 구동 방향이 설정에 따라 정상적으로 바뀌는지 확인한다.

## 시험 기준

### 사전 조건

- RS485 인터페이스를 통해 드라이브와 호스트 PC 연결 완료
- 모터 및 팬 정상 장착 상태
- Slave ID: 0x01 기준

### 시험 절차

1. RS485 인터페이스를 통해 드라이브와 호스트 PC를 연결한다.
2. 통신 툴을 실행하고 드라이브와 정상 통신되는지 확인한다.
3. 운전 모드를 Open-loop control mode로 변경한다.

**Operating Mode 쓰기 — FC(06) Write Single Register**
- 레지스터: Operating Mode [0xD106]
- 값: 0x0002 (Open-loop control)

| 바이트 | 0 | 1 | 2 | 3 | 4 | 5 | 6 | 7 |
|--------|------|------|------|------|------|------|------|------|
| 내용 | 0x01 | 0x06 | 0xD1 | 0x06 | 0x00 | 0x02 | 0xD1 | 0x36 |

→ `01 06 D1 06 00 02 D1 36`

---

### CW 방향 시험

4. 운전 방향을 CW로 설정한다. (0xD102 = 0x0001)

**Running Direction 쓰기 (CW = 0x0001)**

| 바이트 | 0 | 1 | 2 | 3 | 4 | 5 | 6 | 7 |
|--------|------|------|------|------|------|------|------|------|
| 내용 | 0x01 | 0x06 | 0xD1 | 0x02 | 0x00 | 0x01 | 0xD0 | 0xF6 |

→ `01 06 D1 02 00 01 D0 F6`

5. Set Point를 6554 (10% 토크)로 설정하여 구동한다.

**Set Point 쓰기 (6554 = 0x199A)**

| 바이트 | 0 | 1 | 2 | 3 | 4 | 5 | 6 | 7 |
|--------|------|------|------|------|------|------|------|------|
| 내용 | 0x01 | 0x06 | 0xD0 | 0x01 | 0x19 | 0x9A | 0x6B | 0x31 |

→ `01 06 D0 01 19 9A 6B 31`

6. 팬을 정면으로 바라보았을 때 팬의 구동방향이 CW임을 확인한다.
7. Set Point를 0으로 설정하여 정지시킨다.

**Set Point 쓰기 (정지 = 0x0000)**

| 바이트 | 0 | 1 | 2 | 3 | 4 | 5 | 6 | 7 |
|--------|------|------|------|------|------|------|------|------|
| 내용 | 0x01 | 0x06 | 0xD0 | 0x01 | 0x00 | 0x00 | 0xE0 | 0xCA |

→ `01 06 D0 01 00 00 E0 CA`

---

### CCW 방향 시험

8. 운전 방향을 CCW로 설정한다. (0xD102 = 0x0000)

**Running Direction 쓰기 (CCW = 0x0000)**

| 바이트 | 0 | 1 | 2 | 3 | 4 | 5 | 6 | 7 |
|--------|------|------|------|------|------|------|------|------|
| 내용 | 0x01 | 0x06 | 0xD1 | 0x02 | 0x00 | 0x00 | 0x11 | 0x36 |

→ `01 06 D1 02 00 00 11 36`

9. Set Point를 6554로 설정하여 구동한다.
10. 팬을 정면으로 바라보았을 때 팬의 구동방향이 CCW임을 확인한다.
11. Set Point를 0으로 설정하여 정지시킨다.

### 판정 기준

| 케이스 | 판정 조건 |
|--------|----------|
| CW | [0xD102] = 0x0001 설정 후 구동 지령 시 시계 방향 회전 확인 |
| CCW | [0xD102] = 0x0000 설정 후 구동 지령 시 반시계 방향 회전 확인 |

**합격 조건**: CW / CCW 양방향 모두 설정에 따라 정상 구동

## 시험 결과

| 시험 일자 | 시험자 | 케이스 | 판정 | 비고 |
|----------|--------|--------|------|------|
|          |        | CW | □ 합격 / □ 불합격 | |
|          |        | CCW | □ 합격 / □ 불합격 | |
|          |        | **종합** | □ 합격 / □ 불합격 | |
